T4318 1322:906.577   SEGGER J-Link V7.56d Log File
T4318 1322:906.639   DLL Compiled: Oct 29 2021 13:57:10
T4318 1322:906.648   Logging started @ 2025-07-11 01:26
T4318 1322:906.655 - 2883.937ms
T4318 1322:906.668 JLINK_SetWarnOutHandler(...)
T4318 1322:906.675 - 0.010ms
T4318 1322:906.684 JLINK_OpenEx(...)
T4318 1322:921.576   Firmware: J-Link J-Link V21 compiled Oct 24 2016 00:00:00
T4318 1322:922.055   Firmware: J-Link J-Link V21 compiled Oct 24 2016 00:00:00
T4318 1322:936.339   Hardware: V1.00
T4318 1322:936.366   S/N: 770233800
T4318 1322:936.377   OEM: SEGGER
T4318 1322:936.387   Feature(s): None
T4318 1322:938.123   TELNET listener socket opened on port 19021
T4318 1322:938.221   WEBSRV WEBSRV_Init(): Starting webserver thread(s)
T4318 1322:938.391   WEBSRV Webserver running on local port 19080
T4318 1322:948.657 - 41.991ms returns "O.K."
T4318 1322:948.715 JLINK_GetEmuCaps()
T4318 1322:948.726 - 0.014ms returns 0x98EA5A33
T4318 1322:948.872 JLINK_TIF_GetAvailable(...)
T4318 1322:949.104 - 0.242ms
T4318 1322:949.129 JLINK_SetErrorOutHandler(...)
T4318 1322:949.137 - 0.011ms
T4318 1322:949.318 JLINK_ExecCommand("ProjectFile = "C:\Users\11\Desktop\OLED\STM32F412RET6_54.7V15A_Disp\USER\JLinkSettings.ini"", ...). 
T4318 1322:998.430   Ref file found at: D:\Keil_v5\ARM\Segger\JLinkDevices.ref
T4318 1323:014.836   XML referenced by ref file: D:\SEGGER\JLink\JLinkDevices.xml
T4318 1323:016.008   D:\SEGGER\JLink\JLinkDevices.xml evaluated successfully.
T4318 1323:084.011 - 134.708ms returns 0x00
T4318 1323:088.553 JLINK_ExecCommand("Device = STM32F412RETx", ...). 
T4318 1323:108.126   Device "STM32F412RE" selected.
T4318 1323:108.474 - 19.901ms returns 0x00
T4318 1323:108.492 JLINK_ExecCommand("DisableConnectionTimeout", ...). 
T4318 1323:108.503 - 0.005ms returns 0x01
T4318 1323:108.517 JLINK_GetHardwareVersion()
T4318 1323:108.525 - 0.011ms returns 10000
T4318 1323:108.534 JLINK_GetDLLVersion()
T4318 1323:108.541 - 0.009ms returns 75604
T4318 1323:108.550 JLINK_GetOEMString(...)
T4318 1323:108.559 JLINK_GetFirmwareString(...)
T4318 1323:108.566 - 0.010ms
T4318 1323:117.076 JLINK_GetDLLVersion()
T4318 1323:117.101 - 0.028ms returns 75604
T4318 1323:117.115 JLINK_GetCompileDateTime()
T4318 1323:117.122 - 0.010ms
T4318 1323:119.847 JLINK_GetFirmwareString(...)
T4318 1323:119.865 - 0.021ms
T4318 1323:122.177 JLINK_GetHardwareVersion()
T4318 1323:122.190 - 0.017ms returns 10000
T4318 1323:124.695 JLINK_GetSN()
T4318 1323:124.716 - 0.024ms returns 770233800
T4318 1323:127.534 JLINK_GetOEMString(...)
T4318 1323:129.883 JLINK_TIF_Select(JLINKARM_TIF_SWD)
T4318 1323:131.330 - 1.458ms returns 0x00
T4318 1323:131.352 JLINK_HasError()
T4318 1323:131.788 JLINK_SetSpeed(5000)
T4318 1323:131.914 - 0.136ms
T4318 1323:131.934 JLINK_GetId()
T4318 1323:136.282   InitTarget() start
T4318 1323:136.304    J-Link Script File: Executing InitTarget()
T4318 1323:152.496   InitTarget() end
T4318 1323:155.728   Found SW-DP with ID 0x4BA01477
T4318 1323:159.932   Old FW that does not support reading DPIDR via DAP jobs
T4318 1323:166.897   DPv0 detected
T4318 1323:169.851   Scanning AP map to find all available APs
T4318 1323:175.755   AP[1]: Stopped AP scan as end of AP map has been reached
T4318 1323:178.664   AP[0]: AHB-AP (IDR: 0x24770011)
T4318 1323:181.114   Iterating through AP map to find AHB-AP to use
T4318 1323:187.288   AP[0]: Core found
T4318 1323:189.894   AP[0]: AHB-AP ROM base: 0xE00FF000
T4318 1323:200.288   CPUID register: 0x410FC241. Implementer code: 0x41 (ARM)
T4318 1323:202.779   Found Cortex-M4 r0p1, Little endian.
T4318 1323:303.852   -- Max. mem block: 0x00003508
T4318 1323:304.030   CPU_ReadMem(4 bytes @ 0xE000EDF0)
T4318 1323:304.393   CPU_ReadMem(4 bytes @ 0xE0002000)
T4318 1323:309.246   FPUnit: 6 code (BP) slots and 2 literal slots
T4318 1323:309.284   CPU_ReadMem(4 bytes @ 0xE000EDFC)
T4318 1323:309.673   CPU_WriteMem(4 bytes @ 0xE000EDFC)
T4318 1323:310.055   CPU_ReadMem(4 bytes @ 0xE0001000)
T4318 1323:310.414   CPU_WriteMem(4 bytes @ 0xE0001000)
T4318 1323:310.811   CPU_ReadMem(4 bytes @ 0xE000ED88)
T4318 1323:311.144   CPU_WriteMem(4 bytes @ 0xE000ED88)
T4318 1323:311.461   CPU_ReadMem(4 bytes @ 0xE000ED88)
T4318 1323:311.864   CPU_WriteMem(4 bytes @ 0xE000ED88)
T4318 1323:315.166   CoreSight components:
T4318 1323:318.668   ROMTbl[0] @ E00FF000
T4318 1323:318.703   CPU_ReadMem(64 bytes @ 0xE00FF000)
T4318 1323:319.471   CPU_ReadMem(32 bytes @ 0xE000EFE0)
T4318 1323:323.161   [0][0]: E000E000 CID B105E00D PID 000BB00C SCS-M7
T4318 1323:323.192   CPU_ReadMem(32 bytes @ 0xE0001FE0)
T4318 1323:327.156   [0][1]: E0001000 CID B105E00D PID 003BB002 DWT
T4318 1323:327.192   CPU_ReadMem(32 bytes @ 0xE0002FE0)
T4318 1323:330.729   [0][2]: E0002000 CID B105E00D PID 002BB003 FPB
T4318 1323:330.755   CPU_ReadMem(32 bytes @ 0xE0000FE0)
T4318 1323:334.996   [0][3]: E0000000 CID B105E00D PID 003BB001 ITM
T4318 1323:335.030   CPU_ReadMem(32 bytes @ 0xE0040FE0)
T4318 1323:339.165   [0][4]: E0040000 CID B105900D PID 000BB9A1 TPIU
T4318 1323:339.198   CPU_ReadMem(32 bytes @ 0xE0041FE0)
T4318 1323:342.903   [0][5]: E0041000 CID B105900D PID 000BB925 ETM
T4318 1323:343.897 - 211.974ms returns 0x2BA01477
T4318 1323:343.926 JLINK_GetDLLVersion()
T4318 1323:343.933 - 0.011ms returns 75604
T4318 1323:343.948 JLINK_CORE_GetFound()
T4318 1323:343.955 - 0.010ms returns 0xE0000FF
T4318 1323:344.007 JLINK_GetDebugInfo(0x100 = JLINKARM_ROM_TABLE_ADDR_INDEX)
T4318 1323:344.024   Value=0xE00FF000
T4318 1323:344.034 - 0.030ms returns 0
T4318 1323:346.568 JLINK_GetDebugInfo(0x100 = JLINKARM_ROM_TABLE_ADDR_INDEX)
T4318 1323:346.583   Value=0xE00FF000
T4318 1323:346.593 - 0.029ms returns 0
T4318 1323:346.602 JLINK_GetDebugInfo(0x101 = JLINKARM_DEBUG_INFO_ETM_ADDR_INDEX)
T4318 1323:346.609   Value=0xE0041000
T4318 1323:346.619 - 0.020ms returns 0
T4318 1323:346.634 JLINK_ReadMemEx(0xE0041FD0, 0x20 Bytes, Flags = 0x02000004)
T4318 1323:346.662   CPU_ReadMem(32 bytes @ 0xE0041FD0)
T4318 1323:347.169   Data:  04 00 00 00 00 00 00 00 00 00 00 00 00 00 00 00 ...
T4318 1323:347.183 - 0.553ms returns 32 (0x20)
T4318 1323:347.194 JLINK_GetDebugInfo(0x102 = JLINKARM_DEBUG_INFO_MTB_ADDR_INDEX)
T4318 1323:347.201   Value=0x00000000
T4318 1323:347.211 - 0.020ms returns 0
T4318 1323:347.220 JLINK_GetDebugInfo(0x103 = JLINKARM_DEBUG_INFO_TPIU_ADDR_INDEX)
T4318 1323:347.227   Value=0xE0040000
T4318 1323:347.236 - 0.019ms returns 0
T4318 1323:347.244 JLINK_GetDebugInfo(0x104 = JLINKARM_DEBUG_INFO_ITM_ADDR_INDEX)
T4318 1323:347.251   Value=0xE0000000
T4318 1323:347.261 - 0.019ms returns 0
T4318 1323:347.269 JLINK_GetDebugInfo(0x105 = JLINKARM_DEBUG_INFO_DWT_ADDR_INDEX)
T4318 1323:347.276   Value=0xE0001000
T4318 1323:347.285 - 0.019ms returns 0
T4318 1323:347.293 JLINK_GetDebugInfo(0x106 = JLINKARM_DEBUG_INFO_FPB_ADDR_INDEX)
T4318 1323:347.301   Value=0xE0002000
T4318 1323:347.310 - 0.022ms returns 0
T4318 1323:347.321 JLINK_GetDebugInfo(0x107 = JLINKARM_DEBUG_INFO_NVIC_ADDR_INDEX)
T4318 1323:347.328   Value=0xE000E000
T4318 1323:347.337 - 0.019ms returns 0
T4318 1323:347.345 JLINK_GetDebugInfo(0x10C = JLINKARM_DEBUG_INFO_DBG_ADDR_INDEX)
T4318 1323:347.352   Value=0xE000EDF0
T4318 1323:347.362 - 0.019ms returns 0
T4318 1323:347.370 JLINK_GetDebugInfo(0x01 = Unknown)
T4318 1323:347.377   Value=0x00000001
T4318 1323:347.386 - 0.019ms returns 0
T4318 1323:347.397 JLINK_ReadMemU32(0xE000ED00, 0x1 Items)
T4318 1323:347.408   CPU_ReadMem(4 bytes @ 0xE000ED00)
T4318 1323:347.746   Data:  41 C2 0F 41
T4318 1323:347.761   Debug reg: CPUID
T4318 1323:347.771 - 0.377ms returns 1 (0x1)
T4318 1323:347.781 JLINK_GetDebugInfo(0x10F = JLINKARM_DEBUG_INFO_HAS_CORTEX_M_SECURITY_EXT_INDEX)
T4318 1323:347.789   Value=0x00000000
T4318 1323:347.798 - 0.020ms returns 0
T4318 1323:347.807 JLINK_HasError()
T4318 1323:347.818 JLINK_SetResetType(JLINKARM_CM3_RESET_TYPE_NORMAL)
T4318 1323:347.830 - 0.015ms returns JLINKARM_CM3_RESET_TYPE_NORMAL
T4318 1323:347.840 JLINK_Reset()
T4318 1323:347.857   CPU is running
T4318 1323:347.868   CPU_WriteMem(4 bytes @ 0xE000EDF0)
T4318 1323:348.223   CPU is running
T4318 1323:348.244   CPU_WriteMem(4 bytes @ 0xE000EDFC)
T4318 1323:351.265   Reset: Halt core after reset via DEMCR.VC_CORERESET.
T4318 1323:354.316   Reset: Reset device via AIRCR.SYSRESETREQ.
T4318 1323:354.336   CPU is running
T4318 1323:354.349   CPU_WriteMem(4 bytes @ 0xE000ED0C)
T4318 1323:408.066   CPU_ReadMem(4 bytes @ 0xE000EDF0)
T4318 1323:408.682   CPU_ReadMem(4 bytes @ 0xE000EDF0)
T4318 1323:409.299   CPU is running
T4318 1323:409.374   CPU_WriteMem(4 bytes @ 0xE000EDF0)
T4318 1323:409.942   CPU is running
T4318 1323:410.018   CPU_WriteMem(4 bytes @ 0xE000EDFC)
T4318 1323:416.309   CPU_ReadMem(4 bytes @ 0xE000EDF0)
T4318 1323:419.834   CPU_WriteMem(4 bytes @ 0xE0002000)
T4318 1323:420.302   CPU_ReadMem(4 bytes @ 0xE000EDFC)
T4318 1323:420.746   CPU_ReadMem(4 bytes @ 0xE0001000)
T4318 1323:421.237 - 73.424ms
T4318 1323:421.338 JLINK_Halt()
T4318 1323:421.365 - 0.038ms returns 0x00
T4318 1323:421.402 JLINK_ReadMemU32(0xE000EDF0, 0x1 Items)
T4318 1323:421.442   CPU_ReadMem(4 bytes @ 0xE000EDF0)
T4318 1323:421.871   Data:  03 00 03 00
T4318 1323:421.921   Debug reg: DHCSR
T4318 1323:421.953 - 0.562ms returns 1 (0x1)
T4318 1323:422.020 JLINK_WriteU32_64(0xE000EDF0, 0xA05F0003)
T4318 1323:422.055   Debug reg: DHCSR
T4318 1323:422.937   CPU_WriteMem(4 bytes @ 0xE000EDF0)
T4318 1323:423.371 - 1.380ms returns 0 (0x00000000)
T4318 1323:423.441 JLINK_WriteU32_64(0xE000EDFC, 0x01000000)
T4318 1323:423.467   Debug reg: DEMCR
T4318 1323:423.519   CPU_WriteMem(4 bytes @ 0xE000EDFC)
T4318 1323:424.067 - 0.662ms returns 0 (0x00000000)
T4318 1323:450.482 JLINK_GetHWStatus(...)
T4318 1323:450.702 - 0.231ms returns 0
T4318 1323:458.545 JLINK_GetNumBPUnits(Type = 0xFFFFFF00)
T4318 1323:458.573 - 0.032ms returns 0x06
T4318 1323:458.583 JLINK_GetNumBPUnits(Type = 0xF0)
T4318 1323:458.591 - 0.010ms returns 0x2000
T4318 1323:458.600 JLINK_GetNumWPUnits()
T4318 1323:458.607 - 0.010ms returns 4
T4318 1323:467.663 JLINK_GetSpeed()
T4318 1323:467.687 - 0.027ms returns 4000
T4318 1323:472.812 JLINK_ReadMemU32(0xE000E004, 0x1 Items)
T4318 1323:472.852   CPU_ReadMem(4 bytes @ 0xE000E004)
T4318 1323:473.223   Data:  03 00 00 00
T4318 1323:473.243 - 0.433ms returns 1 (0x1)
T4318 1323:473.254 JLINK_ReadMemU32(0xE000E004, 0x1 Items)
T4318 1323:473.267   CPU_ReadMem(4 bytes @ 0xE000E004)
T4318 1323:473.594   Data:  03 00 00 00
T4318 1323:473.612 - 0.361ms returns 1 (0x1)
T4318 1323:473.628 JLINK_WriteMemEx(0xE0001000, 0x0000001C Bytes, Flags = 0x02000004)
T4318 1323:473.636   Data:  01 00 00 00 00 00 00 00 00 00 00 00 00 00 00 00 ...
T4318 1323:473.655   CPU_WriteMem(28 bytes @ 0xE0001000)
T4318 1323:474.318 - 0.700ms returns 0x1C
T4318 1323:474.339 JLINK_Halt()
T4318 1323:474.346 - 0.011ms returns 0x00
T4318 1323:474.358 JLINK_IsHalted()
T4318 1323:474.366 - 0.011ms returns TRUE
T4318 1323:515.801 JLINK_WriteMem(0x20000000, 0x188 Bytes, ...)
T4318 1323:515.832   Data:  00 BE 0A E0 0D 78 2D 06 68 40 08 24 40 00 00 D3 ...
T4318 1323:516.402   CPU_WriteMem(392 bytes @ 0x20000000)
T4318 1323:519.106 - 3.329ms returns 0x188
T4318 1323:519.181 JLINK_HasError()
T4318 1323:519.206 JLINK_WriteReg(R0, 0x08000000)
T4318 1323:519.225 - 0.025ms returns 0
T4318 1323:519.243 JLINK_WriteReg(R1, 0x00B71B00)
T4318 1323:519.257 - 0.021ms returns 0
T4318 1323:519.274 JLINK_WriteReg(R2, 0x00000001)
T4318 1323:519.288 - 0.020ms returns 0
T4318 1323:519.304 JLINK_WriteReg(R3, 0x00000000)
T4318 1323:519.318 - 0.020ms returns 0
T4318 1323:519.335 JLINK_WriteReg(R4, 0x00000000)
T4318 1323:519.349 - 0.020ms returns 0
T4318 1323:519.365 JLINK_WriteReg(R5, 0x00000000)
T4318 1323:519.380 - 0.020ms returns 0
T4318 1323:519.396 JLINK_WriteReg(R6, 0x00000000)
T4318 1323:519.410 - 0.020ms returns 0
T4318 1323:519.426 JLINK_WriteReg(R7, 0x00000000)
T4318 1323:519.440 - 0.020ms returns 0
T4318 1323:519.456 JLINK_WriteReg(R8, 0x00000000)
T4318 1323:519.480 - 0.030ms returns 0
T4318 1323:519.497 JLINK_WriteReg(R9, 0x20000184)
T4318 1323:519.511 - 0.020ms returns 0
T4318 1323:519.527 JLINK_WriteReg(R10, 0x00000000)
T4318 1323:519.549 - 0.029ms returns 0
T4318 1323:519.567 JLINK_WriteReg(R11, 0x00000000)
T4318 1323:519.581 - 0.020ms returns 0
T4318 1323:519.597 JLINK_WriteReg(R12, 0x00000000)
T4318 1323:519.611 - 0.020ms returns 0
T4318 1323:519.627 JLINK_WriteReg(R13 (SP), 0x20001000)
T4318 1323:519.643 - 0.022ms returns 0
T4318 1323:519.660 JLINK_WriteReg(R14, 0x20000001)
T4318 1323:519.674 - 0.020ms returns 0
T4318 1323:519.690 JLINK_WriteReg(R15 (PC), 0x2000005E)
T4318 1323:519.705 - 0.021ms returns 0
T4318 1323:519.721 JLINK_WriteReg(XPSR, 0x01000000)
T4318 1323:519.735 - 0.021ms returns 0
T4318 1323:519.752 JLINK_WriteReg(MSP, 0x20001000)
T4318 1323:519.766 - 0.021ms returns 0
T4318 1323:519.783 JLINK_WriteReg(PSP, 0x20001000)
T4318 1323:519.797 - 0.020ms returns 0
T4318 1323:519.813 JLINK_WriteReg(CFBP, 0x00000000)
T4318 1323:519.827 - 0.020ms returns 0
T4318 1323:519.846 JLINK_SetBPEx(Addr = 0x20000000, Type = 0xFFFFFFF2)
T4318 1323:519.873   CPU_ReadMem(2 bytes @ 0x20000000)
T4318 1323:520.299 - 0.468ms returns 0x00000001
T4318 1323:520.332 JLINK_Go()
T4318 1323:520.352   CPU_WriteMem(2 bytes @ 0x20000000)
T4318 1323:520.779   CPU_ReadMem(4 bytes @ 0xE0001000)
T4318 1323:521.246   CPU_WriteMem(4 bytes @ 0xE0002008)
T4318 1323:521.277   CPU_WriteMem(4 bytes @ 0xE000200C)
T4318 1323:521.297   CPU_WriteMem(4 bytes @ 0xE0002010)
T4318 1323:521.316   CPU_WriteMem(4 bytes @ 0xE0002014)
T4318 1323:521.336   CPU_WriteMem(4 bytes @ 0xE0002018)
T4318 1323:521.355   CPU_WriteMem(4 bytes @ 0xE000201C)
T4318 1323:522.850   CPU_WriteMem(4 bytes @ 0xE0001004)
T4318 1323:526.190 - 5.882ms
T4318 1323:526.231 JLINK_IsHalted()
T4318 1323:529.179   CPU_ReadMem(2 bytes @ 0x20000000)
T4318 1323:529.624 - 3.413ms returns TRUE
T4318 1323:529.677 JLINK_ReadReg(R15 (PC))
T4318 1323:529.698 - 0.028ms returns 0x20000000
T4318 1323:529.722 JLINK_ClrBPEx(BPHandle = 0x00000001)
T4318 1323:529.738 - 0.023ms returns 0x00
T4318 1323:529.755 JLINK_ReadReg(R0)
T4318 1323:529.770 - 0.021ms returns 0x00000000
T4318 1323:530.937 JLINK_HasError()
T4318 1323:530.967 JLINK_WriteReg(R0, 0x08000000)
T4318 1323:530.984 - 0.024ms returns 0
T4318 1323:531.002 JLINK_WriteReg(R1, 0x00004000)
T4318 1323:531.016 - 0.021ms returns 0
T4318 1323:531.033 JLINK_WriteReg(R2, 0x000000FF)
T4318 1323:531.047 - 0.020ms returns 0
T4318 1323:531.064 JLINK_WriteReg(R3, 0x00000000)
T4318 1323:531.078 - 0.020ms returns 0
T4318 1323:531.094 JLINK_WriteReg(R4, 0x00000000)
T4318 1323:531.109 - 0.021ms returns 0
T4318 1323:531.125 JLINK_WriteReg(R5, 0x00000000)
T4318 1323:531.139 - 0.020ms returns 0
T4318 1323:531.156 JLINK_WriteReg(R6, 0x00000000)
T4318 1323:531.170 - 0.020ms returns 0
T4318 1323:531.186 JLINK_WriteReg(R7, 0x00000000)
T4318 1323:531.200 - 0.020ms returns 0
T4318 1323:531.217 JLINK_WriteReg(R8, 0x00000000)
T4318 1323:531.231 - 0.021ms returns 0
T4318 1323:531.247 JLINK_WriteReg(R9, 0x20000184)
T4318 1323:531.261 - 0.020ms returns 0
T4318 1323:531.278 JLINK_WriteReg(R10, 0x00000000)
T4318 1323:531.292 - 0.020ms returns 0
T4318 1323:531.309 JLINK_WriteReg(R11, 0x00000000)
T4318 1323:531.322 - 0.020ms returns 0
T4318 1323:531.339 JLINK_WriteReg(R12, 0x00000000)
T4318 1323:531.353 - 0.020ms returns 0
T4318 1323:531.369 JLINK_WriteReg(R13 (SP), 0x20001000)
T4318 1323:531.384 - 0.021ms returns 0
T4318 1323:531.400 JLINK_WriteReg(R14, 0x20000001)
T4318 1323:531.414 - 0.020ms returns 0
T4318 1323:531.431 JLINK_WriteReg(R15 (PC), 0x20000020)
T4318 1323:531.445 - 0.020ms returns 0
T4318 1323:531.461 JLINK_WriteReg(XPSR, 0x01000000)
T4318 1323:531.475 - 0.020ms returns 0
T4318 1323:531.492 JLINK_WriteReg(MSP, 0x20001000)
T4318 1323:531.506 - 0.020ms returns 0
T4318 1323:531.523 JLINK_WriteReg(PSP, 0x20001000)
T4318 1323:531.537 - 0.020ms returns 0
T4318 1323:531.553 JLINK_WriteReg(CFBP, 0x00000000)
T4318 1323:531.567 - 0.020ms returns 0
T4318 1323:531.584 JLINK_SetBPEx(Addr = 0x20000000, Type = 0xFFFFFFF2)
T4318 1323:531.599 - 0.022ms returns 0x00000002
T4318 1323:531.687 JLINK_Go()
T4318 1323:531.728   CPU_ReadMem(4 bytes @ 0xE0001000)
T4318 1323:535.118 - 3.452ms
T4318 1323:535.154 JLINK_IsHalted()
T4318 1323:535.619 - 0.484ms returns FALSE
T4318 1323:535.655 JLINK_HasError()
T4318 1323:567.797 JLINK_IsHalted()
T4318 1323:570.858   CPU_ReadMem(2 bytes @ 0x20000000)
T4318 1323:571.344 - 3.557ms returns TRUE
T4318 1323:571.363 JLINK_ReadReg(R15 (PC))
T4318 1323:571.374 - 0.014ms returns 0x20000000
T4318 1323:571.383 JLINK_ClrBPEx(BPHandle = 0x00000002)
T4318 1323:571.391 - 0.011ms returns 0x00
T4318 1323:571.399 JLINK_ReadReg(R0)
T4318 1323:571.407 - 0.010ms returns 0x00000000
T4318 1323:572.076 JLINK_HasError()
T4318 1323:572.091 JLINK_WriteReg(R0, 0x08004000)
T4318 1323:572.101 - 0.013ms returns 0
T4318 1323:572.110 JLINK_WriteReg(R1, 0x00004000)
T4318 1323:572.117 - 0.010ms returns 0
T4318 1323:572.126 JLINK_WriteReg(R2, 0x000000FF)
T4318 1323:572.133 - 0.010ms returns 0
T4318 1323:572.142 JLINK_WriteReg(R3, 0x00000000)
T4318 1323:572.149 - 0.011ms returns 0
T4318 1323:572.158 JLINK_WriteReg(R4, 0x00000000)
T4318 1323:572.165 - 0.010ms returns 0
T4318 1323:572.173 JLINK_WriteReg(R5, 0x00000000)
T4318 1323:572.181 - 0.010ms returns 0
T4318 1323:572.189 JLINK_WriteReg(R6, 0x00000000)
T4318 1323:572.197 - 0.010ms returns 0
T4318 1323:572.205 JLINK_WriteReg(R7, 0x00000000)
T4318 1323:572.212 - 0.010ms returns 0
T4318 1323:572.221 JLINK_WriteReg(R8, 0x00000000)
T4318 1323:572.228 - 0.010ms returns 0
T4318 1323:572.236 JLINK_WriteReg(R9, 0x20000184)
T4318 1323:572.243 - 0.010ms returns 0
T4318 1323:572.252 JLINK_WriteReg(R10, 0x00000000)
T4318 1323:572.259 - 0.010ms returns 0
T4318 1323:572.268 JLINK_WriteReg(R11, 0x00000000)
T4318 1323:572.275 - 0.010ms returns 0
T4318 1323:572.283 JLINK_WriteReg(R12, 0x00000000)
T4318 1323:572.290 - 0.010ms returns 0
T4318 1323:572.299 JLINK_WriteReg(R13 (SP), 0x20001000)
T4318 1323:572.306 - 0.011ms returns 0
T4318 1323:572.320 JLINK_WriteReg(R14, 0x20000001)
T4318 1323:572.328 - 0.011ms returns 0
T4318 1323:572.336 JLINK_WriteReg(R15 (PC), 0x20000020)
T4318 1323:572.344 - 0.010ms returns 0
T4318 1323:572.352 JLINK_WriteReg(XPSR, 0x01000000)
T4318 1323:572.362 - 0.013ms returns 0
T4318 1323:572.371 JLINK_WriteReg(MSP, 0x20001000)
T4318 1323:572.378 - 0.010ms returns 0
T4318 1323:572.386 JLINK_WriteReg(PSP, 0x20001000)
T4318 1323:572.394 - 0.010ms returns 0
T4318 1323:572.402 JLINK_WriteReg(CFBP, 0x00000000)
T4318 1323:572.409 - 0.010ms returns 0
T4318 1323:572.418 JLINK_SetBPEx(Addr = 0x20000000, Type = 0xFFFFFFF2)
T4318 1323:572.426 - 0.011ms returns 0x00000003
T4318 1323:572.435 JLINK_Go()
T4318 1323:572.449   CPU_ReadMem(4 bytes @ 0xE0001000)
T4318 1323:575.707 - 3.293ms
T4318 1323:575.738 JLINK_IsHalted()
T4318 1323:576.098 - 0.371ms returns FALSE
T4318 1323:576.119 JLINK_HasError()
T4318 1323:578.101 JLINK_IsHalted()
T4318 1323:578.549 - 0.458ms returns FALSE
T4318 1323:578.567 JLINK_HasError()
T4318 1323:580.750 JLINK_IsHalted()
T4318 1323:581.192 - 0.452ms returns FALSE
T4318 1323:581.216 JLINK_HasError()
T4318 1323:583.400 JLINK_IsHalted()
T4318 1323:583.847 - 0.456ms returns FALSE
T4318 1323:583.865 JLINK_HasError()
T4318 1323:585.852 JLINK_IsHalted()
T4318 1323:586.246 - 0.404ms returns FALSE
T4318 1323:586.264 JLINK_HasError()
T4318 1323:592.888 JLINK_IsHalted()
T4318 1323:595.890   CPU_ReadMem(2 bytes @ 0x20000000)
T4318 1323:596.346 - 3.468ms returns TRUE
T4318 1323:596.365 JLINK_ReadReg(R15 (PC))
T4318 1323:596.375 - 0.014ms returns 0x20000000
T4318 1323:596.385 JLINK_ClrBPEx(BPHandle = 0x00000003)
T4318 1323:596.392 - 0.011ms returns 0x00
T4318 1323:596.401 JLINK_ReadReg(R0)
T4318 1323:596.409 - 0.010ms returns 0x00000000
T4318 1323:597.082 JLINK_HasError()
T4318 1323:597.097 JLINK_WriteReg(R0, 0x08008000)
T4318 1323:597.107 - 0.013ms returns 0
T4318 1323:597.116 JLINK_WriteReg(R1, 0x00004000)
T4318 1323:597.124 - 0.011ms returns 0
T4318 1323:597.132 JLINK_WriteReg(R2, 0x000000FF)
T4318 1323:597.140 - 0.011ms returns 0
T4318 1323:597.148 JLINK_WriteReg(R3, 0x00000000)
T4318 1323:597.162 - 0.017ms returns 0
T4318 1323:597.171 JLINK_WriteReg(R4, 0x00000000)
T4318 1323:597.178 - 0.010ms returns 0
T4318 1323:597.187 JLINK_WriteReg(R5, 0x00000000)
T4318 1323:597.194 - 0.010ms returns 0
T4318 1323:597.203 JLINK_WriteReg(R6, 0x00000000)
T4318 1323:597.210 - 0.010ms returns 0
T4318 1323:597.218 JLINK_WriteReg(R7, 0x00000000)
T4318 1323:597.225 - 0.010ms returns 0
T4318 1323:597.234 JLINK_WriteReg(R8, 0x00000000)
T4318 1323:597.241 - 0.010ms returns 0
T4318 1323:597.249 JLINK_WriteReg(R9, 0x20000184)
T4318 1323:597.256 - 0.010ms returns 0
T4318 1323:597.265 JLINK_WriteReg(R10, 0x00000000)
T4318 1323:597.272 - 0.010ms returns 0
T4318 1323:597.281 JLINK_WriteReg(R11, 0x00000000)
T4318 1323:597.288 - 0.010ms returns 0
T4318 1323:597.296 JLINK_WriteReg(R12, 0x00000000)
T4318 1323:597.303 - 0.010ms returns 0
T4318 1323:597.312 JLINK_WriteReg(R13 (SP), 0x20001000)
T4318 1323:597.319 - 0.011ms returns 0
T4318 1323:597.328 JLINK_WriteReg(R14, 0x20000001)
T4318 1323:597.337 - 0.013ms returns 0
T4318 1323:597.346 JLINK_WriteReg(R15 (PC), 0x20000020)
T4318 1323:597.354 - 0.010ms returns 0
T4318 1323:597.362 JLINK_WriteReg(XPSR, 0x01000000)
T4318 1323:597.369 - 0.010ms returns 0
T4318 1323:597.378 JLINK_WriteReg(MSP, 0x20001000)
T4318 1323:597.385 - 0.010ms returns 0
T4318 1323:597.394 JLINK_WriteReg(PSP, 0x20001000)
T4318 1323:597.401 - 0.010ms returns 0
T4318 1323:597.409 JLINK_WriteReg(CFBP, 0x00000000)
T4318 1323:597.417 - 0.010ms returns 0
T4318 1323:597.425 JLINK_SetBPEx(Addr = 0x20000000, Type = 0xFFFFFFF2)
T4318 1323:597.434 - 0.012ms returns 0x00000004
T4318 1323:597.443 JLINK_Go()
T4318 1323:597.456   CPU_ReadMem(4 bytes @ 0xE0001000)
T4318 1323:600.792 - 3.359ms
T4318 1323:600.810 JLINK_IsHalted()
T4318 1323:601.168 - 0.368ms returns FALSE
T4318 1323:601.188 JLINK_HasError()
T4318 1323:602.739 JLINK_IsHalted()
T4318 1323:603.119 - 0.391ms returns FALSE
T4318 1323:603.138 JLINK_HasError()
T4318 1323:604.800 JLINK_IsHalted()
T4318 1323:605.246 - 0.456ms returns FALSE
T4318 1323:605.265 JLINK_HasError()
T4318 1323:607.204 JLINK_IsHalted()
T4318 1323:607.665 - 0.471ms returns FALSE
T4318 1323:607.689 JLINK_HasError()
T4318 1323:609.800 JLINK_IsHalted()
T4318 1323:610.239 - 0.449ms returns FALSE
T4318 1323:610.257 JLINK_HasError()
T4318 1323:611.338 JLINK_IsHalted()
T4318 1323:611.789 - 0.461ms returns FALSE
T4318 1323:611.807 JLINK_HasError()
T4318 1323:612.917 JLINK_IsHalted()
T4318 1323:613.341 - 0.434ms returns FALSE
T4318 1323:613.360 JLINK_HasError()
T4318 1323:614.459 JLINK_IsHalted()
T4318 1323:614.918 - 0.470ms returns FALSE
T4318 1323:614.937 JLINK_HasError()
T4318 1323:617.073 JLINK_IsHalted()
T4318 1323:619.931   CPU_ReadMem(2 bytes @ 0x20000000)
T4318 1323:620.301 - 3.238ms returns TRUE
T4318 1323:620.319 JLINK_ReadReg(R15 (PC))
T4318 1323:620.329 - 0.013ms returns 0x20000000
T4318 1323:620.339 JLINK_ClrBPEx(BPHandle = 0x00000004)
T4318 1323:620.346 - 0.011ms returns 0x00
T4318 1323:620.355 JLINK_ReadReg(R0)
T4318 1323:620.363 - 0.011ms returns 0x00000000
T4318 1323:621.089 JLINK_HasError()
T4318 1323:621.107 JLINK_WriteReg(R0, 0x0800C000)
T4318 1323:621.117 - 0.013ms returns 0
T4318 1323:621.126 JLINK_WriteReg(R1, 0x00004000)
T4318 1323:621.134 - 0.011ms returns 0
T4318 1323:621.143 JLINK_WriteReg(R2, 0x000000FF)
T4318 1323:621.150 - 0.010ms returns 0
T4318 1323:621.158 JLINK_WriteReg(R3, 0x00000000)
T4318 1323:621.166 - 0.010ms returns 0
T4318 1323:621.174 JLINK_WriteReg(R4, 0x00000000)
T4318 1323:621.181 - 0.010ms returns 0
T4318 1323:621.190 JLINK_WriteReg(R5, 0x00000000)
T4318 1323:621.197 - 0.010ms returns 0
T4318 1323:621.206 JLINK_WriteReg(R6, 0x00000000)
T4318 1323:621.213 - 0.010ms returns 0
T4318 1323:621.221 JLINK_WriteReg(R7, 0x00000000)
T4318 1323:621.228 - 0.010ms returns 0
T4318 1323:621.237 JLINK_WriteReg(R8, 0x00000000)
T4318 1323:621.244 - 0.010ms returns 0
T4318 1323:621.252 JLINK_WriteReg(R9, 0x20000184)
T4318 1323:621.259 - 0.010ms returns 0
T4318 1323:621.272 JLINK_WriteReg(R10, 0x00000000)
T4318 1323:621.283 - 0.013ms returns 0
T4318 1323:621.291 JLINK_WriteReg(R11, 0x00000000)
T4318 1323:621.298 - 0.010ms returns 0
T4318 1323:621.306 JLINK_WriteReg(R12, 0x00000000)
T4318 1323:621.314 - 0.010ms returns 0
T4318 1323:621.322 JLINK_WriteReg(R13 (SP), 0x20001000)
T4318 1323:621.330 - 0.011ms returns 0
T4318 1323:621.338 JLINK_WriteReg(R14, 0x20000001)
T4318 1323:621.346 - 0.010ms returns 0
T4318 1323:621.354 JLINK_WriteReg(R15 (PC), 0x20000020)
T4318 1323:621.361 - 0.010ms returns 0
T4318 1323:621.370 JLINK_WriteReg(XPSR, 0x01000000)
T4318 1323:621.377 - 0.010ms returns 0
T4318 1323:621.385 JLINK_WriteReg(MSP, 0x20001000)
T4318 1323:621.393 - 0.010ms returns 0
T4318 1323:621.401 JLINK_WriteReg(PSP, 0x20001000)
T4318 1323:621.408 - 0.010ms returns 0
T4318 1323:621.416 JLINK_WriteReg(CFBP, 0x00000000)
T4318 1323:621.424 - 0.010ms returns 0
T4318 1323:621.432 JLINK_SetBPEx(Addr = 0x20000000, Type = 0xFFFFFFF2)
T4318 1323:621.440 - 0.011ms returns 0x00000005
T4318 1323:621.449 JLINK_Go()
T4318 1323:621.463   CPU_ReadMem(4 bytes @ 0xE0001000)
T4318 1323:624.766 - 3.332ms
T4318 1323:624.790 JLINK_IsHalted()
T4318 1323:625.220 - 0.440ms returns FALSE
T4318 1323:625.238 JLINK_HasError()
T4318 1323:626.319 JLINK_IsHalted()
T4318 1323:626.765 - 0.455ms returns FALSE
T4318 1323:626.783 JLINK_HasError()
T4318 1323:627.863 JLINK_IsHalted()
T4318 1323:628.344 - 0.491ms returns FALSE
T4318 1323:628.363 JLINK_HasError()
T4318 1323:629.435 JLINK_IsHalted()
T4318 1323:629.863 - 0.439ms returns FALSE
T4318 1323:629.882 JLINK_HasError()
T4318 1323:631.766 JLINK_IsHalted()
T4318 1323:632.090 - 0.333ms returns FALSE
T4318 1323:632.108 JLINK_HasError()
T4318 1323:634.056 JLINK_IsHalted()
T4318 1323:634.541 - 0.495ms returns FALSE
T4318 1323:634.560 JLINK_HasError()
T4318 1323:635.752 JLINK_IsHalted()
T4318 1323:636.196 - 0.453ms returns FALSE
T4318 1323:636.214 JLINK_HasError()
T4318 1323:637.325 JLINK_IsHalted()
T4318 1323:637.769 - 0.454ms returns FALSE
T4318 1323:637.787 JLINK_HasError()
T4318 1323:638.901 JLINK_IsHalted()
T4318 1323:641.867   CPU_ReadMem(2 bytes @ 0x20000000)
T4318 1323:642.320 - 3.429ms returns TRUE
T4318 1323:642.339 JLINK_ReadReg(R15 (PC))
T4318 1323:642.349 - 0.014ms returns 0x20000000
T4318 1323:642.359 JLINK_ClrBPEx(BPHandle = 0x00000005)
T4318 1323:642.367 - 0.011ms returns 0x00
T4318 1323:642.376 JLINK_ReadReg(R0)
T4318 1323:642.383 - 0.010ms returns 0x00000000
T4318 1323:642.828 JLINK_HasError()
T4318 1323:642.843 JLINK_WriteReg(R0, 0x00000001)
T4318 1323:642.852 - 0.012ms returns 0
T4318 1323:642.861 JLINK_WriteReg(R1, 0x00004000)
T4318 1323:642.869 - 0.011ms returns 0
T4318 1323:642.878 JLINK_WriteReg(R2, 0x000000FF)
T4318 1323:642.885 - 0.010ms returns 0
T4318 1323:642.893 JLINK_WriteReg(R3, 0x00000000)
T4318 1323:642.901 - 0.010ms returns 0
T4318 1323:642.909 JLINK_WriteReg(R4, 0x00000000)
T4318 1323:642.916 - 0.010ms returns 0
T4318 1323:642.925 JLINK_WriteReg(R5, 0x00000000)
T4318 1323:642.932 - 0.010ms returns 0
T4318 1323:642.940 JLINK_WriteReg(R6, 0x00000000)
T4318 1323:642.948 - 0.010ms returns 0
T4318 1323:642.956 JLINK_WriteReg(R7, 0x00000000)
T4318 1323:642.963 - 0.010ms returns 0
T4318 1323:642.972 JLINK_WriteReg(R8, 0x00000000)
T4318 1323:642.979 - 0.010ms returns 0
T4318 1323:642.987 JLINK_WriteReg(R9, 0x20000184)
T4318 1323:642.994 - 0.010ms returns 0
T4318 1323:643.003 JLINK_WriteReg(R10, 0x00000000)
T4318 1323:643.010 - 0.010ms returns 0
T4318 1323:643.019 JLINK_WriteReg(R11, 0x00000000)
T4318 1323:643.026 - 0.010ms returns 0
T4318 1323:643.034 JLINK_WriteReg(R12, 0x00000000)
T4318 1323:643.041 - 0.010ms returns 0
T4318 1323:643.050 JLINK_WriteReg(R13 (SP), 0x20001000)
T4318 1323:643.058 - 0.011ms returns 0
T4318 1323:643.066 JLINK_WriteReg(R14, 0x20000001)
T4318 1323:643.073 - 0.010ms returns 0
T4318 1323:643.082 JLINK_WriteReg(R15 (PC), 0x2000008C)
T4318 1323:643.089 - 0.010ms returns 0
T4318 1323:643.097 JLINK_WriteReg(XPSR, 0x01000000)
T4318 1323:643.110 - 0.018ms returns 0
T4318 1323:643.121 JLINK_WriteReg(MSP, 0x20001000)
T4318 1323:643.128 - 0.010ms returns 0
T4318 1323:643.137 JLINK_WriteReg(PSP, 0x20001000)
T4318 1323:643.144 - 0.010ms returns 0
T4318 1323:643.152 JLINK_WriteReg(CFBP, 0x00000000)
T4318 1323:643.159 - 0.010ms returns 0
T4318 1323:643.168 JLINK_SetBPEx(Addr = 0x20000000, Type = 0xFFFFFFF2)
T4318 1323:643.176 - 0.011ms returns 0x00000006
T4318 1323:643.185 JLINK_Go()
T4318 1323:643.199   CPU_ReadMem(4 bytes @ 0xE0001000)
T4318 1323:646.666 - 3.492ms
T4318 1323:646.685 JLINK_IsHalted()
T4318 1323:649.567   CPU_ReadMem(2 bytes @ 0x20000000)
T4318 1323:649.946 - 3.272ms returns TRUE
T4318 1323:649.965 JLINK_ReadReg(R15 (PC))
T4318 1323:649.975 - 0.013ms returns 0x20000000
T4318 1323:649.984 JLINK_ClrBPEx(BPHandle = 0x00000006)
T4318 1323:649.992 - 0.011ms returns 0x00
T4318 1323:650.000 JLINK_ReadReg(R0)
T4318 1323:650.008 - 0.011ms returns 0x00000000
T4318 1323:712.738 JLINK_WriteMem(0x20000000, 0x188 Bytes, ...)
T4318 1323:712.762   Data:  00 BE 0A E0 0D 78 2D 06 68 40 08 24 40 00 00 D3 ...
T4318 1323:712.793   CPU_WriteMem(392 bytes @ 0x20000000)
T4318 1323:715.455 - 2.730ms returns 0x188
T4318 1323:715.501 JLINK_HasError()
T4318 1323:715.515 JLINK_WriteReg(R0, 0x08000000)
T4318 1323:715.528 - 0.016ms returns 0
T4318 1323:715.539 JLINK_WriteReg(R1, 0x00B71B00)
T4318 1323:715.548 - 0.013ms returns 0
T4318 1323:715.558 JLINK_WriteReg(R2, 0x00000002)
T4318 1323:715.567 - 0.013ms returns 0
T4318 1323:715.577 JLINK_WriteReg(R3, 0x00000000)
T4318 1323:715.586 - 0.013ms returns 0
T4318 1323:715.596 JLINK_WriteReg(R4, 0x00000000)
T4318 1323:715.605 - 0.013ms returns 0
T4318 1323:715.616 JLINK_WriteReg(R5, 0x00000000)
T4318 1323:715.625 - 0.013ms returns 0
T4318 1323:715.635 JLINK_WriteReg(R6, 0x00000000)
T4318 1323:715.644 - 0.012ms returns 0
T4318 1323:715.654 JLINK_WriteReg(R7, 0x00000000)
T4318 1323:715.663 - 0.012ms returns 0
T4318 1323:715.673 JLINK_WriteReg(R8, 0x00000000)
T4318 1323:715.682 - 0.013ms returns 0
T4318 1323:715.692 JLINK_WriteReg(R9, 0x20000184)
T4318 1323:715.702 - 0.013ms returns 0
T4318 1323:715.712 JLINK_WriteReg(R10, 0x00000000)
T4318 1323:715.721 - 0.013ms returns 0
T4318 1323:715.731 JLINK_WriteReg(R11, 0x00000000)
T4318 1323:715.740 - 0.012ms returns 0
T4318 1323:715.750 JLINK_WriteReg(R12, 0x00000000)
T4318 1323:715.759 - 0.012ms returns 0
T4318 1323:715.769 JLINK_WriteReg(R13 (SP), 0x20001000)
T4318 1323:715.778 - 0.013ms returns 0
T4318 1323:715.789 JLINK_WriteReg(R14, 0x20000001)
T4318 1323:715.797 - 0.012ms returns 0
T4318 1323:715.808 JLINK_WriteReg(R15 (PC), 0x2000005E)
T4318 1323:715.816 - 0.013ms returns 0
T4318 1323:715.827 JLINK_WriteReg(XPSR, 0x01000000)
T4318 1323:715.836 - 0.013ms returns 0
T4318 1323:715.846 JLINK_WriteReg(MSP, 0x20001000)
T4318 1323:715.855 - 0.013ms returns 0
T4318 1323:715.865 JLINK_WriteReg(PSP, 0x20001000)
T4318 1323:715.874 - 0.013ms returns 0
T4318 1323:715.884 JLINK_WriteReg(CFBP, 0x00000000)
T4318 1323:715.893 - 0.013ms returns 0
T4318 1323:715.903 JLINK_SetBPEx(Addr = 0x20000000, Type = 0xFFFFFFF2)
T4318 1323:715.917   CPU_ReadMem(2 bytes @ 0x20000000)
T4318 1323:716.308 - 0.417ms returns 0x00000007
T4318 1323:716.331 JLINK_Go()
T4318 1323:716.344   CPU_WriteMem(2 bytes @ 0x20000000)
T4318 1323:716.741   CPU_ReadMem(4 bytes @ 0xE0001000)
T4318 1323:720.109 - 3.789ms
T4318 1323:720.129 JLINK_IsHalted()
T4318 1323:723.005   CPU_ReadMem(2 bytes @ 0x20000000)
T4318 1323:723.358 - 3.239ms returns TRUE
T4318 1323:723.378 JLINK_ReadReg(R15 (PC))
T4318 1323:723.389 - 0.014ms returns 0x20000000
T4318 1323:723.399 JLINK_ClrBPEx(BPHandle = 0x00000007)
T4318 1323:723.407 - 0.012ms returns 0x00
T4318 1323:723.417 JLINK_ReadReg(R0)
T4318 1323:723.425 - 0.011ms returns 0x00000000
T4318 1323:723.817 JLINK_WriteMem(0x20000188, 0x278 Bytes, ...)
T4318 1323:723.831   Data:  68 35 01 20 99 02 00 08 29 3A 00 08 3D 2C 00 08 ...
T4318 1323:723.853   CPU_WriteMem(632 bytes @ 0x20000188)
T4318 1323:727.788 - 3.982ms returns 0x278
T4318 1323:727.856 JLINK_WriteMem(0x20000400, 0x188 Bytes, ...)
T4318 1323:727.868   Data:  1E F0 10 0F 08 BF B0 EC 10 8A 80 F3 09 88 BF F3 ...
T4318 1323:727.886   CPU_WriteMem(392 bytes @ 0x20000400)
T4318 1323:730.636 - 2.789ms returns 0x188
T4318 1323:730.654 JLINK_HasError()
T4318 1323:730.664 JLINK_WriteReg(R0, 0x08000000)
T4318 1323:730.679 - 0.018ms returns 0
T4318 1323:730.688 JLINK_WriteReg(R1, 0x00000400)
T4318 1323:730.696 - 0.011ms returns 0
T4318 1323:730.704 JLINK_WriteReg(R2, 0x20000188)
T4318 1323:730.712 - 0.010ms returns 0
T4318 1323:730.720 JLINK_WriteReg(R3, 0x00000000)
T4318 1323:730.727 - 0.010ms returns 0
T4318 1323:730.735 JLINK_WriteReg(R4, 0x00000000)
T4318 1323:730.742 - 0.010ms returns 0
T4318 1323:730.750 JLINK_WriteReg(R5, 0x00000000)
T4318 1323:730.757 - 0.010ms returns 0
T4318 1323:730.766 JLINK_WriteReg(R6, 0x00000000)
T4318 1323:730.773 - 0.010ms returns 0
T4318 1323:730.781 JLINK_WriteReg(R7, 0x00000000)
T4318 1323:730.788 - 0.010ms returns 0
T4318 1323:730.796 JLINK_WriteReg(R8, 0x00000000)
T4318 1323:730.804 - 0.010ms returns 0
T4318 1323:730.812 JLINK_WriteReg(R9, 0x20000184)
T4318 1323:730.819 - 0.010ms returns 0
T4318 1323:730.827 JLINK_WriteReg(R10, 0x00000000)
T4318 1323:730.834 - 0.010ms returns 0
T4318 1323:730.843 JLINK_WriteReg(R11, 0x00000000)
T4318 1323:730.850 - 0.010ms returns 0
T4318 1323:730.858 JLINK_WriteReg(R12, 0x00000000)
T4318 1323:730.865 - 0.010ms returns 0
T4318 1323:730.873 JLINK_WriteReg(R13 (SP), 0x20001000)
T4318 1323:730.881 - 0.011ms returns 0
T4318 1323:730.889 JLINK_WriteReg(R14, 0x20000001)
T4318 1323:730.896 - 0.010ms returns 0
T4318 1323:730.904 JLINK_WriteReg(R15 (PC), 0x20000112)
T4318 1323:730.912 - 0.010ms returns 0
T4318 1323:730.920 JLINK_WriteReg(XPSR, 0x01000000)
T4318 1323:730.927 - 0.010ms returns 0
T4318 1323:730.935 JLINK_WriteReg(MSP, 0x20001000)
T4318 1323:730.942 - 0.010ms returns 0
T4318 1323:730.950 JLINK_WriteReg(PSP, 0x20001000)
T4318 1323:730.957 - 0.010ms returns 0
T4318 1323:730.966 JLINK_WriteReg(CFBP, 0x00000000)
T4318 1323:730.973 - 0.010ms returns 0
T4318 1323:730.981 JLINK_SetBPEx(Addr = 0x20000000, Type = 0xFFFFFFF2)
T4318 1323:730.989 - 0.011ms returns 0x00000008
T4318 1323:730.998 JLINK_Go()
T4318 1323:731.011   CPU_ReadMem(4 bytes @ 0xE0001000)
T4318 1323:734.410 - 3.422ms
T4318 1323:734.434 JLINK_IsHalted()
T4318 1323:734.874 - 0.471ms returns FALSE
T4318 1323:734.947 JLINK_HasError()
T4318 1323:738.017 JLINK_IsHalted()
T4318 1323:738.507 - 0.499ms returns FALSE
T4318 1323:738.525 JLINK_HasError()
T4318 1323:740.620 JLINK_IsHalted()
T4318 1323:743.448   CPU_ReadMem(2 bytes @ 0x20000000)
T4318 1323:743.784 - 3.174ms returns TRUE
T4318 1323:743.802 JLINK_ReadReg(R15 (PC))
T4318 1323:743.813 - 0.013ms returns 0x20000000
T4318 1323:743.822 JLINK_ClrBPEx(BPHandle = 0x00000008)
T4318 1323:743.829 - 0.011ms returns 0x00
T4318 1323:743.838 JLINK_ReadReg(R0)
T4318 1323:743.845 - 0.010ms returns 0x00000000
T4318 1323:744.588 JLINK_WriteMem(0x20000188, 0x278 Bytes, ...)
T4318 1323:744.604   Data:  64 EB 00 04 2B 0D 43 EA 0C 33 5E 18 44 EB 1C 50 ...
T4318 1323:744.622   CPU_WriteMem(632 bytes @ 0x20000188)
T4318 1323:748.537 - 3.959ms returns 0x278
T4318 1323:748.555 JLINK_WriteMem(0x20000400, 0x188 Bytes, ...)
T4318 1323:748.562   Data:  02 90 40 1A 01 90 40 28 6B DA C3 F3 13 00 40 F4 ...
T4318 1323:748.578   CPU_WriteMem(392 bytes @ 0x20000400)
T4318 1323:751.216 - 2.671ms returns 0x188
T4318 1323:751.235 JLINK_HasError()
T4318 1323:751.245 JLINK_WriteReg(R0, 0x08000400)
T4318 1323:751.254 - 0.013ms returns 0
T4318 1323:751.263 JLINK_WriteReg(R1, 0x00000400)
T4318 1323:751.271 - 0.011ms returns 0
T4318 1323:751.279 JLINK_WriteReg(R2, 0x20000188)
T4318 1323:751.286 - 0.010ms returns 0
T4318 1323:751.294 JLINK_WriteReg(R3, 0x00000000)
T4318 1323:751.302 - 0.010ms returns 0
T4318 1323:751.310 JLINK_WriteReg(R4, 0x00000000)
T4318 1323:751.317 - 0.010ms returns 0
T4318 1323:751.325 JLINK_WriteReg(R5, 0x00000000)
T4318 1323:751.332 - 0.014ms returns 0
T4318 1323:751.347 JLINK_WriteReg(R6, 0x00000000)
T4318 1323:751.355 - 0.010ms returns 0
T4318 1323:751.363 JLINK_WriteReg(R7, 0x00000000)
T4318 1323:751.370 - 0.010ms returns 0
T4318 1323:751.378 JLINK_WriteReg(R8, 0x00000000)
T4318 1323:751.385 - 0.010ms returns 0
T4318 1323:751.393 JLINK_WriteReg(R9, 0x20000184)
T4318 1323:751.400 - 0.010ms returns 0
T4318 1323:751.409 JLINK_WriteReg(R10, 0x00000000)
T4318 1323:751.416 - 0.010ms returns 0
T4318 1323:751.424 JLINK_WriteReg(R11, 0x00000000)
T4318 1323:751.431 - 0.010ms returns 0
T4318 1323:751.440 JLINK_WriteReg(R12, 0x00000000)
T4318 1323:751.447 - 0.010ms returns 0
T4318 1323:751.455 JLINK_WriteReg(R13 (SP), 0x20001000)
T4318 1323:751.462 - 0.010ms returns 0
T4318 1323:751.471 JLINK_WriteReg(R14, 0x20000001)
T4318 1323:751.478 - 0.010ms returns 0
T4318 1323:751.486 JLINK_WriteReg(R15 (PC), 0x20000112)
T4318 1323:751.493 - 0.010ms returns 0
T4318 1323:751.501 JLINK_WriteReg(XPSR, 0x01000000)
T4318 1323:751.508 - 0.010ms returns 0
T4318 1323:751.516 JLINK_WriteReg(MSP, 0x20001000)
T4318 1323:751.523 - 0.010ms returns 0
T4318 1323:751.532 JLINK_WriteReg(PSP, 0x20001000)
T4318 1323:751.539 - 0.010ms returns 0
T4318 1323:751.547 JLINK_WriteReg(CFBP, 0x00000000)
T4318 1323:751.554 - 0.010ms returns 0
T4318 1323:751.563 JLINK_SetBPEx(Addr = 0x20000000, Type = 0xFFFFFFF2)
T4318 1323:751.571 - 0.011ms returns 0x00000009
T4318 1323:751.579 JLINK_Go()
T4318 1323:751.592   CPU_ReadMem(4 bytes @ 0xE0001000)
T4318 1323:754.957 - 3.387ms
T4318 1323:754.975 JLINK_IsHalted()
T4318 1323:755.455 - 0.490ms returns FALSE
T4318 1323:755.473 JLINK_HasError()
T4318 1323:757.650 JLINK_IsHalted()
T4318 1323:758.195 - 0.556ms returns FALSE
T4318 1323:758.231 JLINK_HasError()
T4318 1323:760.134 JLINK_IsHalted()
T4318 1323:763.065   CPU_ReadMem(2 bytes @ 0x20000000)
T4318 1323:763.535 - 3.410ms returns TRUE
T4318 1323:763.559 JLINK_ReadReg(R15 (PC))
T4318 1323:763.569 - 0.014ms returns 0x20000000
T4318 1323:763.578 JLINK_ClrBPEx(BPHandle = 0x00000009)
T4318 1323:763.586 - 0.011ms returns 0x00
T4318 1323:763.597 JLINK_ReadReg(R0)
T4318 1323:763.605 - 0.010ms returns 0x00000000
T4318 1323:764.211 JLINK_WriteMem(0x20000188, 0x278 Bytes, ...)
T4318 1323:764.223   Data:  73 EB 05 07 05 D3 12 1B 63 EB 05 03 06 43 4C EA ...
T4318 1323:764.239   CPU_WriteMem(632 bytes @ 0x20000188)
T4318 1323:768.170 - 3.969ms returns 0x278
T4318 1323:768.188 JLINK_WriteMem(0x20000400, 0x188 Bytes, ...)
T4318 1323:768.196   Data:  94 ED 00 0A B4 EE E0 0A F1 EE 10 FA 02 D2 9F ED ...
T4318 1323:768.211   CPU_WriteMem(392 bytes @ 0x20000400)
T4318 1323:770.896 - 2.718ms returns 0x188
T4318 1323:770.915 JLINK_HasError()
T4318 1323:770.924 JLINK_WriteReg(R0, 0x08000800)
T4318 1323:770.934 - 0.013ms returns 0
T4318 1323:770.943 JLINK_WriteReg(R1, 0x00000400)
T4318 1323:770.950 - 0.010ms returns 0
T4318 1323:770.959 JLINK_WriteReg(R2, 0x20000188)
T4318 1323:770.966 - 0.010ms returns 0
T4318 1323:770.974 JLINK_WriteReg(R3, 0x00000000)
T4318 1323:770.982 - 0.010ms returns 0
T4318 1323:770.990 JLINK_WriteReg(R4, 0x00000000)
T4318 1323:770.997 - 0.010ms returns 0
T4318 1323:771.005 JLINK_WriteReg(R5, 0x00000000)
T4318 1323:771.012 - 0.010ms returns 0
T4318 1323:771.020 JLINK_WriteReg(R6, 0x00000000)
T4318 1323:771.027 - 0.010ms returns 0
T4318 1323:771.036 JLINK_WriteReg(R7, 0x00000000)
T4318 1323:771.043 - 0.010ms returns 0
T4318 1323:771.051 JLINK_WriteReg(R8, 0x00000000)
T4318 1323:771.058 - 0.010ms returns 0
T4318 1323:771.066 JLINK_WriteReg(R9, 0x20000184)
T4318 1323:771.073 - 0.010ms returns 0
T4318 1323:771.081 JLINK_WriteReg(R10, 0x00000000)
T4318 1323:771.088 - 0.010ms returns 0
T4318 1323:771.096 JLINK_WriteReg(R11, 0x00000000)
T4318 1323:771.103 - 0.010ms returns 0
T4318 1323:771.111 JLINK_WriteReg(R12, 0x00000000)
T4318 1323:771.119 - 0.010ms returns 0
T4318 1323:771.127 JLINK_WriteReg(R13 (SP), 0x20001000)
T4318 1323:771.134 - 0.010ms returns 0
T4318 1323:771.142 JLINK_WriteReg(R14, 0x20000001)
T4318 1323:771.149 - 0.014ms returns 0
T4318 1323:771.164 JLINK_WriteReg(R15 (PC), 0x20000112)
T4318 1323:771.171 - 0.010ms returns 0
T4318 1323:771.180 JLINK_WriteReg(XPSR, 0x01000000)
T4318 1323:771.187 - 0.010ms returns 0
T4318 1323:771.195 JLINK_WriteReg(MSP, 0x20001000)
T4318 1323:771.202 - 0.010ms returns 0
T4318 1323:771.210 JLINK_WriteReg(PSP, 0x20001000)
T4318 1323:771.217 - 0.010ms returns 0
T4318 1323:771.226 JLINK_WriteReg(CFBP, 0x00000000)
T4318 1323:771.233 - 0.010ms returns 0
T4318 1323:771.241 JLINK_SetBPEx(Addr = 0x20000000, Type = 0xFFFFFFF2)
T4318 1323:771.249 - 0.011ms returns 0x0000000A
T4318 1323:771.257 JLINK_Go()
T4318 1323:771.270   CPU_ReadMem(4 bytes @ 0xE0001000)
T4318 1323:774.519 - 3.278ms
T4318 1323:774.544 JLINK_IsHalted()
T4318 1323:774.934 - 0.400ms returns FALSE
T4318 1323:774.953 JLINK_HasError()
T4318 1323:777.004 JLINK_IsHalted()
T4318 1323:777.368 - 0.374ms returns FALSE
T4318 1323:777.387 JLINK_HasError()
T4318 1323:779.159 JLINK_IsHalted()
T4318 1323:782.087   CPU_ReadMem(2 bytes @ 0x20000000)
T4318 1323:782.513 - 3.364ms returns TRUE
T4318 1323:782.531 JLINK_ReadReg(R15 (PC))
T4318 1323:782.541 - 0.013ms returns 0x20000000
T4318 1323:782.550 JLINK_ClrBPEx(BPHandle = 0x0000000A)
T4318 1323:782.558 - 0.011ms returns 0x00
T4318 1323:782.567 JLINK_ReadReg(R0)
T4318 1323:782.574 - 0.010ms returns 0x00000000
T4318 1323:783.187 JLINK_WriteMem(0x20000188, 0x278 Bytes, ...)
T4318 1323:783.200   Data:  08 60 1F 48 80 79 22 49 08 60 1D 48 00 7A 1C 49 ...
T4318 1323:783.216   CPU_WriteMem(632 bytes @ 0x20000188)
T4318 1323:787.145 - 3.967ms returns 0x278
T4318 1323:787.162 JLINK_WriteMem(0x20000400, 0x188 Bytes, ...)
T4318 1323:787.170   Data:  01 A9 07 A0 03 F0 B2 FA 00 23 1A 46 19 46 03 48 ...
T4318 1323:787.186   CPU_WriteMem(392 bytes @ 0x20000400)
T4318 1323:789.773 - 2.621ms returns 0x188
T4318 1323:789.798 JLINK_HasError()
T4318 1323:789.809 JLINK_WriteReg(R0, 0x08000C00)
T4318 1323:789.819 - 0.014ms returns 0
T4318 1323:789.874 JLINK_WriteReg(R1, 0x00000400)
T4318 1323:789.891 - 0.021ms returns 0
T4318 1323:789.901 JLINK_WriteReg(R2, 0x20000188)
T4318 1323:789.909 - 0.010ms returns 0
T4318 1323:789.917 JLINK_WriteReg(R3, 0x00000000)
T4318 1323:789.924 - 0.010ms returns 0
T4318 1323:789.932 JLINK_WriteReg(R4, 0x00000000)
T4318 1323:789.939 - 0.010ms returns 0
T4318 1323:789.948 JLINK_WriteReg(R5, 0x00000000)
T4318 1323:789.955 - 0.010ms returns 0
T4318 1323:789.963 JLINK_WriteReg(R6, 0x00000000)
T4318 1323:789.970 - 0.010ms returns 0
T4318 1323:789.978 JLINK_WriteReg(R7, 0x00000000)
T4318 1323:789.985 - 0.010ms returns 0
T4318 1323:789.993 JLINK_WriteReg(R8, 0x00000000)
T4318 1323:790.000 - 0.010ms returns 0
T4318 1323:790.008 JLINK_WriteReg(R9, 0x20000184)
T4318 1323:790.015 - 0.010ms returns 0
T4318 1323:790.024 JLINK_WriteReg(R10, 0x00000000)
T4318 1323:790.031 - 0.010ms returns 0
T4318 1323:790.039 JLINK_WriteReg(R11, 0x00000000)
T4318 1323:790.046 - 0.010ms returns 0
T4318 1323:790.054 JLINK_WriteReg(R12, 0x00000000)
T4318 1323:790.061 - 0.010ms returns 0
T4318 1323:790.069 JLINK_WriteReg(R13 (SP), 0x20001000)
T4318 1323:790.077 - 0.010ms returns 0
T4318 1323:790.085 JLINK_WriteReg(R14, 0x20000001)
T4318 1323:790.092 - 0.010ms returns 0
T4318 1323:790.100 JLINK_WriteReg(R15 (PC), 0x20000112)
T4318 1323:790.107 - 0.010ms returns 0
T4318 1323:790.116 JLINK_WriteReg(XPSR, 0x01000000)
T4318 1323:790.123 - 0.010ms returns 0
T4318 1323:790.131 JLINK_WriteReg(MSP, 0x20001000)
T4318 1323:790.138 - 0.010ms returns 0
T4318 1323:790.146 JLINK_WriteReg(PSP, 0x20001000)
T4318 1323:790.153 - 0.010ms returns 0
T4318 1323:790.162 JLINK_WriteReg(CFBP, 0x00000000)
T4318 1323:790.169 - 0.010ms returns 0
T4318 1323:790.177 JLINK_SetBPEx(Addr = 0x20000000, Type = 0xFFFFFFF2)
T4318 1323:790.185 - 0.011ms returns 0x0000000B
T4318 1323:790.194 JLINK_Go()
T4318 1323:790.207   CPU_ReadMem(4 bytes @ 0xE0001000)
T4318 1323:793.611 - 3.427ms
T4318 1323:793.629 JLINK_IsHalted()
T4318 1323:794.058 - 0.438ms returns FALSE
T4318 1323:794.076 JLINK_HasError()
T4318 1323:796.204 JLINK_IsHalted()
T4318 1323:796.683 - 0.490ms returns FALSE
T4318 1323:796.702 JLINK_HasError()
T4318 1323:798.847 JLINK_IsHalted()
T4318 1323:801.854   CPU_ReadMem(2 bytes @ 0x20000000)
T4318 1323:802.310 - 3.474ms returns TRUE
T4318 1323:802.331 JLINK_ReadReg(R15 (PC))
T4318 1323:802.342 - 0.015ms returns 0x20000000
T4318 1323:802.353 JLINK_ClrBPEx(BPHandle = 0x0000000B)
T4318 1323:802.362 - 0.012ms returns 0x00
T4318 1323:802.372 JLINK_ReadReg(R0)
T4318 1323:802.380 - 0.012ms returns 0x00000000
T4318 1323:803.071 JLINK_WriteMem(0x20000188, 0x278 Bytes, ...)
T4318 1323:803.086   Data:  41 46 28 46 02 F0 C2 F8 00 26 3F E0 00 27 38 E0 ...
T4318 1323:803.105   CPU_WriteMem(632 bytes @ 0x20000188)
T4318 1323:806.964 - 3.908ms returns 0x278
T4318 1323:806.989 JLINK_WriteMem(0x20000400, 0x188 Bytes, ...)
T4318 1323:807.000   Data:  B4 F5 16 5F F1 DB 07 48 40 88 40 1E 83 B2 05 48 ...
T4318 1323:807.021   CPU_WriteMem(392 bytes @ 0x20000400)
T4318 1323:809.705 - 2.728ms returns 0x188
T4318 1323:809.729 JLINK_HasError()
T4318 1323:809.741 JLINK_WriteReg(R0, 0x08001000)
T4318 1323:809.753 - 0.017ms returns 0
T4318 1323:809.765 JLINK_WriteReg(R1, 0x00000400)
T4318 1323:809.774 - 0.014ms returns 0
T4318 1323:809.785 JLINK_WriteReg(R2, 0x20000188)
T4318 1323:809.794 - 0.013ms returns 0
T4318 1323:809.805 JLINK_WriteReg(R3, 0x00000000)
T4318 1323:809.814 - 0.013ms returns 0
T4318 1323:809.825 JLINK_WriteReg(R4, 0x00000000)
T4318 1323:809.834 - 0.013ms returns 0
T4318 1323:809.845 JLINK_WriteReg(R5, 0x00000000)
T4318 1323:809.854 - 0.013ms returns 0
T4318 1323:809.864 JLINK_WriteReg(R6, 0x00000000)
T4318 1323:809.873 - 0.013ms returns 0
T4318 1323:809.884 JLINK_WriteReg(R7, 0x00000000)
T4318 1323:809.893 - 0.013ms returns 0
T4318 1323:809.904 JLINK_WriteReg(R8, 0x00000000)
T4318 1323:809.913 - 0.013ms returns 0
T4318 1323:809.924 JLINK_WriteReg(R9, 0x20000184)
T4318 1323:809.933 - 0.013ms returns 0
T4318 1323:809.943 JLINK_WriteReg(R10, 0x00000000)
T4318 1323:809.952 - 0.013ms returns 0
T4318 1323:809.963 JLINK_WriteReg(R11, 0x00000000)
T4318 1323:809.972 - 0.013ms returns 0
T4318 1323:809.982 JLINK_WriteReg(R12, 0x00000000)
T4318 1323:809.991 - 0.013ms returns 0
T4318 1323:810.002 JLINK_WriteReg(R13 (SP), 0x20001000)
T4318 1323:810.011 - 0.014ms returns 0
T4318 1323:810.022 JLINK_WriteReg(R14, 0x20000001)
T4318 1323:810.031 - 0.013ms returns 0
T4318 1323:810.041 JLINK_WriteReg(R15 (PC), 0x20000112)
T4318 1323:810.050 - 0.013ms returns 0
T4318 1323:810.061 JLINK_WriteReg(XPSR, 0x01000000)
T4318 1323:810.070 - 0.013ms returns 0
T4318 1323:810.081 JLINK_WriteReg(MSP, 0x20001000)
T4318 1323:810.090 - 0.013ms returns 0
T4318 1323:810.100 JLINK_WriteReg(PSP, 0x20001000)
T4318 1323:810.109 - 0.013ms returns 0
T4318 1323:810.120 JLINK_WriteReg(CFBP, 0x00000000)
T4318 1323:810.129 - 0.013ms returns 0
T4318 1323:810.140 JLINK_SetBPEx(Addr = 0x20000000, Type = 0xFFFFFFF2)
T4318 1323:810.150 - 0.014ms returns 0x0000000C
T4318 1323:810.161 JLINK_Go()
T4318 1323:810.178   CPU_ReadMem(4 bytes @ 0xE0001000)
T4318 1323:813.554 - 3.405ms
T4318 1323:813.577 JLINK_IsHalted()
T4318 1323:814.027 - 0.463ms returns FALSE
T4318 1323:814.050 JLINK_HasError()
T4318 1323:816.858 JLINK_IsHalted()
T4318 1323:817.299 - 0.453ms returns FALSE
T4318 1323:817.327 JLINK_HasError()
T4318 1323:819.535 JLINK_IsHalted()
T4318 1323:822.527   CPU_ReadMem(2 bytes @ 0x20000000)
T4318 1323:822.938 - 3.415ms returns TRUE
T4318 1323:822.961 JLINK_ReadReg(R15 (PC))
T4318 1323:822.973 - 0.016ms returns 0x20000000
T4318 1323:822.985 JLINK_ClrBPEx(BPHandle = 0x0000000C)
T4318 1323:822.995 - 0.014ms returns 0x00
T4318 1323:823.006 JLINK_ReadReg(R0)
T4318 1323:823.016 - 0.013ms returns 0x00000000
T4318 1323:823.787 JLINK_WriteMem(0x20000188, 0x278 Bytes, ...)
T4318 1323:823.805   Data:  02 E0 00 98 40 1E 00 90 00 98 00 28 F9 D1 00 BF ...
T4318 1323:823.827   CPU_WriteMem(632 bytes @ 0x20000188)
T4318 1323:827.759 - 3.984ms returns 0x278
T4318 1323:827.782 JLINK_WriteMem(0x20000400, 0x188 Bytes, ...)
T4318 1323:827.797   Data:  00 F0 40 50 A8 B9 08 68 80 68 40 F0 80 40 0B 68 ...
T4318 1323:827.820   CPU_WriteMem(392 bytes @ 0x20000400)
T4318 1323:830.498 - 2.730ms returns 0x188
T4318 1323:830.524 JLINK_HasError()
T4318 1323:830.538 JLINK_WriteReg(R0, 0x08001400)
T4318 1323:830.552 - 0.028ms returns 0
T4318 1323:830.574 JLINK_WriteReg(R1, 0x00000400)
T4318 1323:830.585 - 0.015ms returns 0
T4318 1323:830.597 JLINK_WriteReg(R2, 0x20000188)
T4318 1323:830.607 - 0.015ms returns 0
T4318 1323:830.619 JLINK_WriteReg(R3, 0x00000000)
T4318 1323:830.629 - 0.014ms returns 0
T4318 1323:830.641 JLINK_WriteReg(R4, 0x00000000)
T4318 1323:830.651 - 0.014ms returns 0
T4318 1323:830.662 JLINK_WriteReg(R5, 0x00000000)
T4318 1323:830.673 - 0.015ms returns 0
T4318 1323:830.685 JLINK_WriteReg(R6, 0x00000000)
T4318 1323:830.695 - 0.014ms returns 0
T4318 1323:830.706 JLINK_WriteReg(R7, 0x00000000)
T4318 1323:830.716 - 0.014ms returns 0
T4318 1323:830.728 JLINK_WriteReg(R8, 0x00000000)
T4318 1323:830.738 - 0.014ms returns 0
T4318 1323:830.750 JLINK_WriteReg(R9, 0x20000184)
T4318 1323:830.760 - 0.015ms returns 0
T4318 1323:830.772 JLINK_WriteReg(R10, 0x00000000)
T4318 1323:830.782 - 0.014ms returns 0
T4318 1323:830.794 JLINK_WriteReg(R11, 0x00000000)
T4318 1323:830.804 - 0.014ms returns 0
T4318 1323:830.815 JLINK_WriteReg(R12, 0x00000000)
T4318 1323:830.825 - 0.014ms returns 0
T4318 1323:830.837 JLINK_WriteReg(R13 (SP), 0x20001000)
T4318 1323:830.847 - 0.015ms returns 0
T4318 1323:830.859 JLINK_WriteReg(R14, 0x20000001)
T4318 1323:830.869 - 0.014ms returns 0
T4318 1323:830.881 JLINK_WriteReg(R15 (PC), 0x20000112)
T4318 1323:830.891 - 0.014ms returns 0
T4318 1323:830.903 JLINK_WriteReg(XPSR, 0x01000000)
T4318 1323:830.913 - 0.014ms returns 0
T4318 1323:830.924 JLINK_WriteReg(MSP, 0x20001000)
